Circuit: * C:\Users\bens1\Documents\Uni\Robotics\MSL\MSL_Imperial_2023\Electronics\Power\supply_selector_simulation.asc

WARNING: Node NC_02 is floating.
WARNING: Node NC_04 is floating.

WARNING: Less than two connections to node NC_01.  This node is used by V3.
WARNING: Less than two connections to node NC_02.  This node is used by V3.
WARNING: Less than two connections to node NC_03.  This node is used by V4.
WARNING: Less than two connections to node NC_04.  This node is used by V4.
Direct Newton iteration failed to find .op point.  (Use ".option noopiter" to skip.)
Starting Gmin stepping
Gmin = 10
Gmin = 1.07374
Gmin = 0.115292
Gmin = 0.0123794
Gmin = 0.00132923
Gmin = 0.000142725
Gmin = 1.5325e-005
Gmin = 1.6455e-006
Gmin = 1.76685e-007
Gmin = 1.89714e-008
Gmin = 2.03704e-009
vernier = 0.5
Gmin = 4.21923e-010
vernier = 0.25
vernier = 0.125
vernier = 0.0625
vernier = 0.03125
Gmin = 4.60143e-010
vernier = 0.0416667
vernier = 0.0555555
Gmin = 4.1664e-010
vernier = 0.074074
Gmin = 3.54784e-010
vernier = 0.0987653
vernier = 0.131687
Gmin = 2.73045e-010
vernier = 0.175583
vernier = 0.23411
Gmin = 1.80879e-010
vernier = 0.312147
Gmin = 9.34779e-011
vernier = 0.416196
vernier = 0.554928
Gmin = 3.24251e-011
vernier = 0.739903
vernier = 0.986537
Gmin = 6.36239e-012
vernier = 1
Gmin = 6.92429e-013
Gmin = 0
Gmin stepping succeeded in finding the operating point.

Semiconductor Device Operating Points:
                        --- Diodes ---
Name:    d:u2:9      d:u2:8      d:u2:7      d:u2:6      d:u2:5
Model:  u2:dbias    u2:dbias     u2:dcl       u2:x        u2:x
Id:      1.20e-07    0.00e+00    3.30e-02    1.37e-09   -1.17e-10
Vd:      1.14e+01    0.00e+00    1.05e-01   -1.80e+00   -1.17e+01
Req:     1.00e-03    1.00e-12    1.00e+01    1.00e-03    1.00e-11
CAP:     0.00e+00    0.00e+00    0.00e+00    0.00e+00    0.00e+00

Name:    d:u2:4      d:u2:1      d:u2:3      d:u2:2        d2
Model:    u2:y        u2:y      u2:dcpow      u2:di         d
Id:      4.15e-22   -4.15e-22    2.60e-03    1.49e-02   -1.13e-11
Vd:      4.14e-10   -4.14e-10    1.35e+01    1.14e+01   -1.12e+01
Req:     1.00e-12    1.00e-12    1.00e-02    2.50e-03    1.00e+12
CAP:     0.00e+00    0.00e+00    0.00e+00    0.00e+00    0.00e+00

Name:      d1        d:u1:9      d:u1:8      d:u1:7      d:u1:6
Model:      d       u1:dbias    u1:dbias     u1:dcl       u1:x
Id:      2.25e-02    1.63e-16    1.20e-07   -4.72e-02   -1.17e-10
Vd:      7.36e-01    1.63e-04    1.20e+01   -1.05e-01   -1.17e+01
Req:     1.15e+00    1.00e-12    1.00e-03    1.00e+01    1.00e-11
CAP:     0.00e+00    0.00e+00    0.00e+00    0.00e+00    0.00e+00

Name:    d:u1:5      d:u1:4      d:u1:1      d:u1:3      d:u1:2
Model:    u1:x        u1:y        u1:y      u1:dcpow      u1:di
Id:      1.36e-09   -2.98e-13    2.98e-13    2.60e-03   -1.62e-02
Vd:     -1.80e+00   -2.98e-01    2.98e-01    1.35e+01   -1.20e+01
Req:     1.00e-03    1.00e-12    1.00e-12    1.00e-02    2.50e-03
CAP:     0.00e+00    0.00e+00    0.00e+00    0.00e+00    0.00e+00

                        --- VDMOSFET Transistors ---
Name:        m:u2:2      m:u2:1      m:u1:2      m:u1:1        m4
Model:        u2:p        u2:n        u1:p        u1:n       ao6407
Id:         -2.40e-03    2.40e-03   -1.15e-11    1.49e-02    8.58e-05
Vgs:        -4.14e-10   -4.14e-10    2.98e-01    2.98e-01    1.14e+01
Vds:        -1.80e+00    1.17e+01   -1.14e+01    2.10e+00    3.88e-01
Vth:         2.00e-01   -2.00e-01    2.00e-01   -2.00e-01   -8.00e-01
Gm:          2.40e-02    2.40e-02    0.00e+00    5.97e-02    0.00e+00
Gds:         0.00e+00    0.00e+00    0.00e+00    0.00e+00    0.00e+00
Cgs:         0.00e+00    0.00e+00    0.00e+00    0.00e+00    9.00e-10
Cgd:         0.00e+00    0.00e+00    0.00e+00    0.00e+00    8.51e-11
Cbody:       0.00e+00    0.00e+00    0.00e+00    0.00e+00    3.32e-10

Name:          m3          m2          m1
Model:       ao6407      ao6407      ao6407
Id:          1.98e+00   -1.98e+00   -8.58e-05
Vgs:        -1.01e+01   -1.02e+01   -4.25e-01
Vds:         5.41e-02   -5.41e-02   -1.15e+01
Vth:        -8.00e-01   -8.00e-01   -8.00e-01
Gm:          2.13e-01    2.11e-01    1.70e-03
Gds:         2.97e+02    2.99e+02    0.00e+00
Cgs:         9.00e-10    9.00e-10    9.00e-10
Cgd:         5.00e-10    5.00e-10    8.51e-11
Cbody:       2.67e-10    2.53e-10    7.36e-11



Date: Mon Jul 10 02:35:59 2023
Total elapsed time: 0.130 seconds.

tnom = 27
temp = 27
method = trap
totiter = 1239
traniter = 0
tranpoints = 0
accept = 0
rejected = 0
matrix size = 46
fillins = 79
solver = Normal
Thread vector: 6.1/3.3[2] 0.0/0.0[0] 0.7/0.7[2] 0.1/0.4[1]  2592/500
Matrix Compiler1: 7.21 KB object code size
Matrix Compiler2: 4.93 KB object code size  0.3/0.4/[0.3]

